CITIFILE A.01.01
#Momentum: B.12.00.024 (*) built: Jan 14 2016 
#Momentum Date and Time: Mon Feb 04 15:05:45 2019

NAME PortSet1/TwoP0_Dsolver_data/first_odd_mode_is_1/most_even_mode_is_1/PMLG4/LS0


CONSTANT NBR_OF_PORTS 2

VAR freq MAG 6

DATA GAMMA_1[1] RI
DATA Z0_1[1,1] RI
DATA LAMBADAI_1[1,1] RI
DATA Zcir_1[1,1] RI
DATA Ycir_1[1,1] RI

VAR_LIST_BEGIN
	 1000000000
	 1010000000
	 1020000000
	 1030000000
	 1781707146
	 3000000000
VAR_LIST_END

BEGIN
	-0,	 52.45054923
	-0,	 52.97516889
	-0,	 53.49979123
	-0,	 54.0244169
	-0,	 93.47133889
	-0,	 157.4604127
END
BEGIN
	 60.02941964817429 ,	 0 
	 60.02936619803662 ,	 0 
	 60.029312017130671 ,	 0 
	 60.029257814650855 ,	 0 
	 60.024626709753321 ,	 0 
	 60.015989055983688 ,	 0 
END
BEGIN
	 0,	 52.45054923
	 0,	 52.97516889
	 0,	 53.49979123
	 0,	 54.0244169
	 0,	 93.47133889
	 0,	 157.4604127
END
BEGIN
	 -7.45694400290058e-020 ,	 1.33015940237114e-009 
	 2.38780711965766e-019 ,	 1.33016108465467e-009 
	 1.46248545399916e-019 ,	 1.3301627611533e-009 
	 -8.68989537629159e-021 ,	 1.3301644631825e-009 
	 6.24465247605649e-019 ,	 1.33033529472507e-009 
	 1.05112914246043e-018 ,	 1.33078103166871e-009 
END
BEGIN
	 2.93693170939248e-018 ,	 5.2388583390874e-008 
	 -9.40444092292022e-018 ,	 5.23887429416654e-008 
	 -5.76004768865174e-018 ,	 5.23889035406163e-008 
	 3.42255042819996e-019 ,	 5.23890651832502e-008 
	 -2.45986115499425e-017 ,	 5.24038787932452e-008 
	 -4.14174539141829e-017 ,	 5.24365273709291e-008 
END
CITIFILE A.01.01
NAME PortSet2/TwoP0_Dsolver_data/first_odd_mode_is_1/most_even_mode_is_1/PMLG4/LS0

VAR freq MAG 6

DATA GAMMA_1[1] RI
DATA Z0_1[1,1] RI
DATA LAMBADAI_1[1,1] RI
DATA Zcir_1[1,1] RI
DATA Ycir_1[1,1] RI

VAR_LIST_BEGIN
	 1000000000
	 1010000000
	 1020000000
	 1030000000
	 1781707146
	 3000000000
VAR_LIST_END

BEGIN
	-0,	 52.45054923
	-0,	 52.97516889
	-0,	 53.49979123
	-0,	 54.0244169
	-0,	 93.47133889
	-0,	 157.4604127
END
BEGIN
	 60.02941964817429 ,	 0 
	 60.02936619803662 ,	 0 
	 60.029312017130671 ,	 0 
	 60.029257814650855 ,	 0 
	 60.024626709753321 ,	 0 
	 60.015989055983688 ,	 0 
END
BEGIN
	 0,	 52.45054923
	 0,	 52.97516889
	 0,	 53.49979123
	 0,	 54.0244169
	 0,	 93.47133889
	 0,	 157.4604127
END
BEGIN
	 -7.45694400290058e-020 ,	 1.33015940237114e-009 
	 2.38780711965766e-019 ,	 1.33016108465467e-009 
	 1.46248545399916e-019 ,	 1.3301627611533e-009 
	 -8.68989537629159e-021 ,	 1.3301644631825e-009 
	 6.24465247605649e-019 ,	 1.33033529472507e-009 
	 1.05112914246043e-018 ,	 1.33078103166871e-009 
END
BEGIN
	 2.93693170939248e-018 ,	 5.2388583390874e-008 
	 -9.40444092292022e-018 ,	 5.23887429416654e-008 
	 -5.76004768865174e-018 ,	 5.23889035406163e-008 
	 3.42255042819996e-019 ,	 5.23890651832502e-008 
	 -2.45986115499425e-017 ,	 5.24038787932452e-008 
	 -4.14174539141829e-017 ,	 5.24365273709291e-008 
END
