CITIFILE A.01.01
#Momentum: B.12.00.024 (*) built: Jan 14 2016 
#Momentum Date and Time: Mon Feb 04 15:05:58 2019

NAME Momentum.SP

#  mode: MW    project: proj    reference: S_50

#eesof Port[1] P1
#eesof Port[2] P2

CONSTANT NBR_OF_PORTS 2

CONSTANT NORMALIZATION 1.000137115

VAR freq MAG 12

DATA S[1,1] RI
DATA S[1,2] RI
DATA S[2,1] RI
DATA S[2,2] RI
DATA S_50[1,1] RI
DATA S_50[1,2] RI
DATA S_50[2,1] RI
DATA S_50[2,2] RI
DATA S_Z0[1,1] RI
DATA S_Z0[1,2] RI
DATA S_Z0[2,1] RI
DATA S_Z0[2,2] RI
DATA GAMMA[1] RI
DATA GAMMA[2] RI
DATA Z0[1] RI
DATA Z0[2] RI
DATA PORTZ[1] RI
DATA PORTZ[2] RI

VAR_LIST_BEGIN
	 1000000000
	 1333333334
	 1500000001
	 1666666667
	 1777777778
	 1870370371
	 1888888889
	 1962962963
	 2333333333
	 2500000000
	 2666666667
	 3000000000
VAR_LIST_END

BEGIN
	 0.0116112793,	-0.999927457
	-0.610946844,	-0.791569167
	-0.875421034,	-0.482344956
	-0.990575716,	 0.0722825362
	-0.479047731,	 0.719981428
	-0.0325747063,	-0.00587125704
	-0.0384658567,	 0.00667180283
	-0.0942585538,	-0.656439037
	-0.814016128,	 0.578540084
	-0.537374603,	 0.842676252
	-0.224998106,	 0.973994471
	 0.368138359,	 0.929453456
END
BEGIN
	 0.00319705548 ,	 3.34973519e-005 
	 0.00953898995,	-0.00737931513
	 0.0145700281,	-0.0265127631
	-0.00850267384,	-0.114910273
	-0.417470917,	-0.277159439
	-0.173465862,	 0.984045426
	 0.177280196,	 0.983273152
	 0.740921965,	-0.105994216
	-0.0299043782,	-0.0420943351
	-0.0278036383,	-0.0177454207
	-0.024319639,	-0.00563219982
	-0.0192457671,	 0.00760955233
END
BEGIN
	 0.00319705548 ,	 3.34973519e-005 
	 0.00953898995,	-0.00737931513
	 0.0145700281,	-0.0265127631
	-0.00850267384,	-0.114910273
	-0.417470917,	-0.277159439
	-0.173465862,	 0.984045426
	 0.177280196,	 0.983273152
	 0.740921965,	-0.105994216
	-0.0299043782,	-0.0420943351
	-0.0278036383,	-0.0177454207
	-0.024319639,	-0.00563219982
	-0.0192457671,	 0.00760955233
END
BEGIN
	 0.011544941,	-0.999928063
	-0.61092567,	-0.791585868
	-0.875408439,	-0.482368904
	-0.990580775,	 0.0722313757
	-0.479256273,	 0.719847544
	-0.0326996073,	-0.00513281681
	-0.038313822,	 0.00748828909
	-0.0932543955,	-0.656584712
	-0.814029394,	 0.578523903
	-0.537376488,	 0.84267666
	-0.224958205,	 0.974005023
	 0.368561276,	 0.929285538
END
BEGIN
	 0.0116112793,	-0.999927457
	-0.610946844,	-0.791569167
	-0.875421034,	-0.482344956
	-0.990575716,	 0.0722825362
	-0.479047731,	 0.719981428
	-0.0325747063,	-0.00587125704
	-0.0384658567,	 0.00667180283
	-0.0942585538,	-0.656439037
	-0.814016128,	 0.578540084
	-0.537374603,	 0.842676252
	-0.224998106,	 0.973994471
	 0.368138359,	 0.929453456
END
BEGIN
	 0.00319705548 ,	 3.34973519e-005 
	 0.00953898995,	-0.00737931513
	 0.0145700281,	-0.0265127631
	-0.00850267384,	-0.114910273
	-0.417470917,	-0.277159439
	-0.173465862,	 0.984045426
	 0.177280196,	 0.983273152
	 0.740921965,	-0.105994216
	-0.0299043782,	-0.0420943351
	-0.0278036383,	-0.0177454207
	-0.024319639,	-0.00563219982
	-0.0192457671,	 0.00760955233
END
BEGIN
	 0.00319705548 ,	 3.34973519e-005 
	 0.00953898995,	-0.00737931513
	 0.0145700281,	-0.0265127631
	-0.00850267384,	-0.114910273
	-0.417470917,	-0.277159439
	-0.173465862,	 0.984045426
	 0.177280196,	 0.983273152
	 0.740921965,	-0.105994216
	-0.0299043782,	-0.0420943351
	-0.0278036383,	-0.0177454207
	-0.024319639,	-0.00563219982
	-0.0192457671,	 0.00760955233
END
BEGIN
	 0.011544941,	-0.999928063
	-0.61092567,	-0.791585868
	-0.875408439,	-0.482368904
	-0.990580775,	 0.0722313757
	-0.479256273,	 0.719847544
	-0.0326996073,	-0.00513281681
	-0.038313822,	 0.00748828909
	-0.0932543955,	-0.656584712
	-0.814029394,	 0.578523903
	-0.537376488,	 0.84267666
	-0.224958205,	 0.974005023
	 0.368561276,	 0.929285538
END
BEGIN
	-0.169544949,	-0.985517401
	-0.712963116,	-0.701109611
	-0.911854075,	-0.409641511
	-0.993425699,	 0.0604222461
	-0.583248515,	 0.672372931
	-0.206825292,	-0.0357648533
	-0.212261491,	 0.0371088418
	-0.177516775,	-0.659751458
	-0.867049968,	 0.496247591
	-0.654381115,	 0.755564388
	-0.389684085,	 0.920601479
	 0.201004763,	 0.979260389
END
BEGIN
	 0.00310490696 ,	 -0.000537782917 
	 0.00748108177,	-0.00762452672
	 0.0105013028,	-0.0234448826
	-0.00593339506,	-0.0959352733
	-0.343778904,	-0.297559979
	-0.166045561,	 0.963275773
	 0.169280609,	 0.961616352
	 0.705248528,	-0.189389849
	-0.0219850609,	-0.0384307733
	-0.0223456069,	-0.0193680798
	-0.021722697,	-0.00920913458
	-0.0213631089,	 0.00437230648
END
BEGIN
	 0.00310490696 ,	 -0.000537782917 
	 0.00748108177,	-0.00762452672
	 0.0105013028,	-0.0234448826
	-0.00593339506,	-0.0959352733
	-0.343778904,	-0.297559979
	-0.166045561,	 0.963275773
	 0.169280609,	 0.961616352
	 0.705248528,	-0.189389849
	-0.0219850609,	-0.0384307733
	-0.0223456069,	-0.0193680798
	-0.021722697,	-0.00920913458
	-0.0213631089,	 0.00437230648
END
BEGIN
	-0.169609359,	-0.985506156
	-0.712946548,	-0.701126817
	-0.911845068,	-0.409662649
	-0.993429403,	 0.0603795209
	-0.583420772,	 0.672228399
	-0.206944739,	-0.0350420184
	-0.212116208,	 0.0379073642
	-0.176561201,	-0.660010094
	-0.86705993,	 0.496232669
	-0.65438284,	 0.755564504
	-0.389648658,	 0.920617809
	 0.201474336,	 0.979163581
END
BEGIN
	 2.056262107e-034,	 52.45054923
	 5.497538443e-022,	 69.93963226
	 8.429532732e-022,	 78.68569321
	 6.454254661e-022,	 87.43290792
	 3.088090103e-023,	 93.26507759
	 1.217920528e-023,	 98.12558344
	 1.482417481e-023,	 99.09773133
	 2.557650879e-023,	 102.9864851
	 7.209710531e-023,	 122.434386
	 8.050068215e-023,	 131.1883628
	 7.460942069e-023,	 139.9439671
	 0,	 157.4604127
END
BEGIN
	 2.056262107e-034,	 52.45054923
	 5.497538443e-022,	 69.93963226
	 8.429532732e-022,	 78.68569321
	 6.454254661e-022,	 87.43290792
	 3.088090103e-023,	 93.26507759
	 1.217920528e-023,	 98.12558344
	 1.482417481e-023,	 99.09773133
	 2.557650879e-023,	 102.9864851
	 7.209710531e-023,	 122.434386
	 8.050068215e-023,	 131.1883628
	 7.460942069e-023,	 139.9439671
	 0,	 157.4604127
END
BEGIN
	 60.029419650000001 ,	 5.3560111140000005e-019 
	 60.027521239999999 ,	 1.4382020519999999e-017 
	 60.026490920000001 ,	 1.1740986370000001e-017 
	 60.025406619999998 ,	 4.4946781899999998e-018 
	 60.02465377 ,	 -2.2545381170000001e-018 
	 60.024045280000003 ,	 -2.6127444400000001e-018 
	 60.023922900000002 ,	 -2.6297465469999999e-018 
	 60.023430159999997 ,	 -2.688273805e-018 
	 60.020888849999999 ,	 -2.7985286739999999e-018 
	 60.019703100000001 ,	 -2.773228933e-018 
	 60.0184912 ,	 -2.7137117859999999e-018 
	 60.015989060000003 ,	 -2.5148687219999999e-018 
END
BEGIN
	 60.029419650000001 ,	 5.3560111140000005e-019 
	 60.027521239999999 ,	 1.4382020519999999e-017 
	 60.026490920000001 ,	 1.1740986370000001e-017 
	 60.025406619999998 ,	 4.4946781899999998e-018 
	 60.02465377 ,	 -2.2545381170000001e-018 
	 60.024045280000003 ,	 -2.6127444400000001e-018 
	 60.023922900000002 ,	 -2.6297465469999999e-018 
	 60.023430159999997 ,	 -2.688273805e-018 
	 60.020888849999999 ,	 -2.7985286739999999e-018 
	 60.019703100000001 ,	 -2.773228933e-018 
	 60.0184912 ,	 -2.7137117859999999e-018 
	 60.015989060000003 ,	 -2.5148687219999999e-018 
END
BEGIN
	 50 ,	 0 
	 50 ,	 0 
	 50 ,	 0 
	 50 ,	 0 
	 50 ,	 0 
	 50 ,	 0 
	 50 ,	 0 
	 50 ,	 0 
	 50 ,	 0 
	 50 ,	 0 
	 50 ,	 0 
	 50 ,	 0 
END
BEGIN
	 50 ,	 0 
	 50 ,	 0 
	 50 ,	 0 
	 50 ,	 0 
	 50 ,	 0 
	 50 ,	 0 
	 50 ,	 0 
	 50 ,	 0 
	 50 ,	 0 
	 50 ,	 0 
	 50 ,	 0 
	 50 ,	 0 
END
